<Qucs Dataset 0.0.19>
<indep acfrequency 100>
  +1.00000000000000000000e+006
  +2.00000000000000000000e+006
  +3.00000000000000000000e+006
  +4.00000000000000000000e+006
  +5.00000000000000000000e+006
  +6.00000000000000000000e+006
  +7.00000000000000000000e+006
  +8.00000000000000000000e+006
  +9.00000000000000000000e+006
  +1.00000000000000000000e+007
  +1.10000000000000000000e+007
  +1.20000000000000000000e+007
  +1.30000000000000000000e+007
  +1.40000000000000000000e+007
  +1.50000000000000000000e+007
  +1.60000000000000000000e+007
  +1.70000000000000000000e+007
  +1.80000000000000000000e+007
  +1.90000000000000000000e+007
  +2.00000000000000000000e+007
  +2.10000000000000000000e+007
  +2.20000000000000000000e+007
  +2.30000000000000000000e+007
  +2.40000000000000000000e+007
  +2.50000000000000000000e+007
  +2.60000000000000000000e+007
  +2.70000000000000000000e+007
  +2.80000000000000000000e+007
  +2.90000000000000000000e+007
  +3.00000000000000000000e+007
  +3.10000000000000000000e+007
  +3.20000000000000000000e+007
  +3.30000000000000000000e+007
  +3.40000000000000000000e+007
  +3.50000000000000000000e+007
  +3.60000000000000000000e+007
  +3.70000000000000000000e+007
  +3.80000000000000000000e+007
  +3.90000000000000000000e+007
  +4.00000000000000000000e+007
  +4.10000000000000000000e+007
  +4.20000000000000000000e+007
  +4.30000000000000000000e+007
  +4.40000000000000000000e+007
  +4.50000000000000000000e+007
  +4.60000000000000000000e+007
  +4.70000000000000000000e+007
  +4.80000000000000000000e+007
  +4.90000000000000000000e+007
  +5.00000000000000000000e+007
  +5.10000000000000000000e+007
  +5.20000000000000000000e+007
  +5.30000000000000000000e+007
  +5.40000000000000000000e+007
  +5.50000000000000000000e+007
  +5.60000000000000000000e+007
  +5.70000000000000000000e+007
  +5.80000000000000000000e+007
  +5.90000000000000000000e+007
  +6.00000000000000000000e+007
  +6.10000000000000000000e+007
  +6.20000000000000000000e+007
  +6.30000000000000000000e+007
  +6.40000000000000000000e+007
  +6.50000000000000000000e+007
  +6.60000000000000000000e+007
  +6.70000000000000000000e+007
  +6.80000000000000000000e+007
  +6.90000000000000000000e+007
  +7.00000000000000000000e+007
  +7.10000000000000000000e+007
  +7.20000000000000000000e+007
  +7.30000000000000000000e+007
  +7.40000000000000000000e+007
  +7.50000000000000000000e+007
  +7.60000000000000000000e+007
  +7.70000000000000000000e+007
  +7.80000000000000000000e+007
  +7.90000000000000000000e+007
  +8.00000000000000000000e+007
  +8.10000000000000000000e+007
  +8.20000000000000000000e+007
  +8.30000000000000000000e+007
  +8.40000000000000000000e+007
  +8.50000000000000000000e+007
  +8.60000000000000000000e+007
  +8.70000000000000000000e+007
  +8.80000000000000000000e+007
  +8.90000000000000000000e+007
  +9.00000000000000000000e+007
  +9.10000000000000000000e+007
  +9.20000000000000000000e+007
  +9.30000000000000000000e+007
  +9.40000000000000000000e+007
  +9.50000000000000000000e+007
  +9.60000000000000000000e+007
  +9.70000000000000000000e+007
  +9.80000000000000000000e+007
  +9.90000000000000000000e+007
  +1.00000000000000000000e+008
</indep>
<dep I_meas acfrequency>
  +2.79045921554515567731e-002-j1.04998356573566728987e-003
  +2.77866067407811292989e-002-j2.09171736889723555719e-003
  +2.75918553408186044418e-002-j3.11714871384742358770e-003
  +2.73231038757403461859e-002-j4.11860924071055876233e-003
  +2.69840883582902375804e-002-j5.08898342429646172863e-003
  +2.65793892150335692159e-002-j6.02185087886754604608e-003
  +2.61142836176011423899e-002-j6.91159712169116171449e-003
  +2.55945843230082556441e-002-j7.75348981017472300981e-003
  +2.50264736051956579455e-002-j8.54371985520461715846e-003
  +2.44163402688227608450e-002-j9.27940899291227958012e-003
  +2.37706266122433527987e-002-j9.95858718823525862485e-003
  +2.30956907302263744763e-002-j1.05801445365147905875e-002
  +2.23976879080117798060e-002-j1.11437630872568242679e-002
  +2.16824732292244873322e-002-j1.16498342644896224485e-002
  +2.09555260382655456075e-002-j1.20993673758391095951e-002
  +2.02218956561653270820e-002-j1.24938941903793843125e-002
  +1.94861667959041993947e-002-j1.28353738355361235435e-002
  +1.87524424681793887293e-002-j1.31261014219080270060e-002
  +1.80243417909515118991e-002-j1.33686229417485178544e-002
  +1.73050099757780101450e-002-j1.35656581705375332836e-002
  +1.65971378110705315712e-002-j1.37200325776349538187e-002
  +1.59029881452171333034e-002-j1.38346186469867210578e-002
  +1.52244271428964954296e-002-j1.39122865309588544108e-002
  +1.45629584048652272604e-002-j1.39558636058325549051e-002
  +1.39197583725847381930e-002-j1.39681022543138647074e-002
  +1.32957117605242095687e-002-j1.39516550520555112497e-002
  +1.26914460549740291256e-002-j1.39090564634438799974e-002
  +1.21073643794759027575e-002-j1.38427101389228864731e-002
  +1.15436762494225009928e-002-j1.37548809357150234045e-002
  +1.10004259216490776763e-002-j1.36476908421065985105e-002
  +1.04775181910985344669e-002-j1.35231180612116093365e-002
  +9.97474159957267673959e-003-j1.33829985945553148197e-002
  +9.49178910561767480436e-003-j1.32290297524267977392e-002
  +9.02827632436491167578e-003-j1.30627751021756138838e-002
  +8.58375748612798944448e-003-j1.28856704444753212419e-002
  +8.15773928682504353982e-003-j1.26990304792761361796e-002
  +7.74969281543441777110e-003-j1.25040558868658394781e-002
  +7.35906374674235013583e-003-j1.23018406049532555424e-002
  +6.98528098411717052879e-003-j1.20933791302306244825e-002
  +6.62776392897121771619e-003-j1.18795737129905060875e-002
  +6.28592854254357829430e-003-j1.16612413467597625383e-002
  +5.95919235288022361430e-003-j1.14391204823306794069e-002
  +5.64697854632224566923e-003-j1.12138774177900617940e-002
  +5.34871926910788792614e-003-j1.09861123339137136540e-002
  +5.06385825132093635864e-003-j1.07563649582948159256e-002
  +4.79185285269323208573e-003-j1.05251198524305023679e-002
  +4.53217561789012735041e-003-j1.02928113242501135388e-002
  +4.28431541798401233079e-003-j1.00598279747059968225e-002
  +4.04777824489626660009e-003-j9.82651689147129130120e-003
  +3.82208771666099492506e-003-j9.59318750584170661100e-003
  +3.60678534340055055585e-003-j9.36011513090836445861e-003
  +3.40143059685040329357e-003-j9.12754420019361648042e-003
  +3.20560082006265695959e-003-j8.89569122641680962160e-003
  +3.01889100848263267421e-003-j8.66474750004105932766e-003
  +2.84091348885659629453e-003-j8.43488154687240150598e-003
  +2.67129751832002448192e-003-j8.20624136334224991984e-003
  +2.50968882246371599240e-003-j7.97895644728279646030e-003
  +2.35574908811717314422e-003-j7.75313964106656185182e-003
  +2.20915542396269955552e-003-j7.52888880297476487807e-003
  +2.06959979984788072782e-003-j7.30628832162156377494e-003
  +1.93678847374754666867e-003-j7.08541048722111359986e-003
  +1.81044141369684770219e-003-j6.86631673246193910409e-003
  +1.69029172063511865139e-003-j6.64905875476393213447e-003
  +1.57608505693197678381e-003-j6.43367953074661016316e-003
  +1.46757908438278623746e-003-j6.22021423284065642922e-003
  +1.36454291463355753197e-003-j6.00869105713150962467e-003
  +1.26675657430340145131e-003-j5.79913197073583536884e-003
  +1.17401048649604707735e-003-j5.59155338627942161828e-003
  +1.08610496991246594303e-003-j5.38596677036732099375e-003
  +1.00284975638167354189e-003-j5.18237919231218351762e-003
  +9.24063527301572555997e-004-j4.98079381881241876201e-003
  +8.49573469216573532933e-004-j4.78121035974547400893e-003
  +7.79214848544005213131e-004-j4.58362546976020732159e-003
  +7.12830605289299819305e-004-j4.38803310991265661800e-003
  +6.50270965452891995875e-004-j4.19442487318963646431e-003
  +5.91393071725592432697e-004-j4.00279027740000920704e-003
  +5.36060631986839692537e-004-j3.81311702858259200452e-003
  +4.84143585059435715458e-004-j3.62539125777945787921e-003
  +4.35517783130365526006e-004-j3.43959773375053338984e-003
  +3.90064690217340609424e-004-j3.25572005395891039825e-003
  +3.47671096042657089015e-004-j3.07374081593242420851e-003
  +3.08228844667076697355e-004-j2.89364177090486876867e-003
  +2.71634577235330967274e-004-j2.71540396145698685604e-003
  +2.37789488189944629064e-004-j2.53900784471202366210e-003
  +2.06599094319739754258e-004-j2.36443340249074557963e-003
  +1.77973016023196954931e-004-j2.19166023969575955721e-003
  +1.51824770183257856540e-004-j2.02066767207253594058e-003
  +1.28071574068948655688e-004-j1.85143480438427435880e-003
  +1.06634159699408586773e-004-j1.68394059993781436066e-003
  +8.74365981272548454736e-005-j1.51816394230774647997e-003
  +7.04061331201785662931e-005-j1.35408369002442676918e-003
  +5.54730237419492929591e-005-j1.19167872491798831902e-003
  +4.25703953563191827333e-005-j1.03092799474404869277e-003
  +3.16340985994903437406e-005-j8.71810550656740897851e-004
  +2.26025758885911595502e-005-j7.14305580040414068652e-004
  +1.54167350549763719394e-005-j5.58392435162387030384e-004
  +1.00198297118830886724e-005-j4.04050658064782932093e-004
  +6.35734598609410943456e-006-j2.51260002073460113510e-004
  +4.37689526265744276981e-006-j1.00000450265848035269e-004
  +4.02811261034752261063e-006+j4.97477687932201825620e-005
</dep>
<dep I_coil acfrequency>
  +2.79073959830095849610e-002-j1.05023833843166636802e-003
  +2.77977779914443008658e-002-j2.09285703987956497873e-003
  +2.76168270101425014640e-002-j3.12041838571778347086e-003
  +2.73670964503546637614e-002-j4.12583944914069952747e-003
  +2.70520352882852796461e-002-j5.10254764163520051212e-003
  +2.66758720476920896392e-002-j6.04461207893641685324e-003
  +2.62434784829165060338e-002-j6.94684583045666534384e-003
  +2.57602208080740836815e-002-j7.80487629646845881143e-003
  +2.52318063948111757921e-002-j8.61518316158498692614e-003
  +2.46641333153579597748e-002-j9.37510538512995560134e-003
  +2.40631490699223377083e-002-j1.00828203424411337596e-002
  +2.34347234745946736423e-002-j1.07372994246378930527e-002
  +2.27845391729551774440e-002-j1.13382451040067704778e-002
  +2.21180017307407127125e-002-j1.18860147032235335257e-002
  +2.14401699049435526256e-002-j1.23815359383331290155e-002
  +2.07557055325291728298e-002-j1.28262188327094503459e-002
  +2.00688416042398912187e-002-j1.32218679255379362170e-002
  +1.93833664842786995708e-002-j1.35705979216339620713e-002
  +1.87026218880534181310e-002-j1.38747551326384704201e-002
  +1.80295121006224176585e-002-j1.41368463060728387359e-002
  +1.73665219619899904857e-002-j1.43594757709100354776e-002
  +1.67157413141503646825e-002-j1.45452912698088229759e-002
  +1.60788938543802925607e-002-j1.46969384069994320891e-002
  +1.54573686318683553576e-002-j1.48170233135221755816e-002
  +1.48522527304030364792e-002-j1.49080829070348253040e-002
  +1.42643639765989461987e-002-j1.49725619864533362330e-002
  +1.36942827863840155267e-002-j1.50127963354612058156e-002
  +1.31423825036573738156e-002-j1.50310009969393931079e-002
  +1.26088577903740901853e-002-j1.50292629076827933404e-002
  +1.20937507964937601690e-002-j1.50095371365935193603e-002
  +1.15969749732456640923e-002-j1.49736460394659844780e-002
  +1.11183364974129610114e-002-j1.49232807214149665320e-002
  +1.06575533519135470795e-002-j1.48600042779483392658e-002
  +1.02142721631334892907e-002-j1.47852563634370947482e-002
  +9.78808293237503831974e-003-j1.47003587085217934938e-002
  +9.37853182118409192669e-003-j1.46065212741821239678e-002
  +8.98513216152770424761e-003-j1.45048487889966274539e-002
  +8.60737386460831699342e-003-j1.43963474673485750804e-002
  +8.24473139884814715250e-003-j1.42819317502214451765e-002
  +7.89667050012453700103e-003-j1.41624309472625515421e-002
  +7.56265376715670178953e-003-j1.40385956896136362276e-002
  +7.24214528316844893818e-003-j1.39111041283172497118e-002
  +6.93461439242842522801e-003-j1.37805678336202133000e-002
  +6.63953874761799567317e-003-j1.36475373668962559476e-002
  +6.35640673163178140936e-003-j1.35125075098347351837e-002
  +6.08471934566924901877e-003-j1.33759221455636272829e-002
  +5.82399164451007436694e-003-j1.32381787939992549841e-002
  +5.57375378978192115298e-003-j1.30996328093807342524e-002
  +5.33355178286758213613e-003-j1.29606012520307213587e-002
  +5.10294793085761672069e-003-j1.28213664492019437102e-002
  +4.88152109160346070471e-003-j1.26821792616875813481e-002
  +4.66886673741568475338e-003-j1.25432620739119159853e-002
  +4.46459687122107221069e-003-j1.24048115256563812325e-002
  +4.26833982397511677020e-003-j1.22670010035611683208e-002
  +4.07973995775426714894e-003-j1.21299829101923859614e-002
  +3.89845729515947425625e-003-j1.19938907278732426881e-002
  +3.72416709238349366573e-003-j1.18588408937198349496e-002
  +3.55655937047165762732e-003-j1.17249345014556749511e-002
  +3.39533841688166582173e-003-j1.15922588446500021003e-002
  +3.24022226737485583015e-003-j1.14608888150670631262e-002
  +3.09094217650213859416e-003-j1.13308881688533764909e-002
  +2.94724208344359500655e-003-j1.12023106723462342882e-002
  +2.80887807868503147635e-003-j1.10752011383734236261e-002
  +2.67561787593632166571e-003-j1.09495963630403987665e-002
  +2.54724029278777588936e-003-j1.08255259721733061717e-002
  +2.42353474283723765992e-003-j1.07030131858079826518e-002
  +2.30430074138187820920e-003-j1.05820755083875714386e-002
  +2.18934742623640155035e-003-j1.04627253516554902940e-002
  +2.07849309479669203116e-003-j1.03449705966047987571e-002
  +1.97156475810340500732e-003-j1.02288151002682525109e-002
  +1.86839771235974491659e-003-j1.01142591526031111471e-002
  +1.76883512811293330813e-003-j1.00012998882389163996e-002
  +1.67272765711069110184e-003-j9.88993165741218309417e-003
  +1.57993305668517255991e-003-j9.78014636000594170251e-003
  +1.49031583139037915320e-003-j9.67193374624318244481e-003
  +1.40374689152098983125e-003-j9.56528168724642656462e-003
  +1.32010322806452168320e-003-j9.46017641837039284514e-003
  +1.23926760358267218365e-003-j9.35660275793756372742e-003
  +1.16112825847698372672e-003-j9.25454430375452843927e-003
  +1.08557863206637517095e-003-j9.15398360955948717232e-003
  +1.01251709788739707729e-003-j9.05490234334468090116e-003
  +9.41846712619869019800e-004-j8.95728142931077886413e-003
  +8.73474978039526597264e-004-j8.86110117504125376076e-003
  +8.07313615404030835744e-004-j8.76634138533197160292e-003
  +7.43278351687573046562e-004-j8.67298146397302814614e-003
  +6.81288717092108512055e-004-j8.58100050465505394259e-003
  +6.21267853278342297232e-004-j8.49037737205928302875e-003
  +5.63142331776994749248e-004-j8.40109077408883117566e-003
  +5.06841982059475686453e-004-j8.31311932610643254671e-003
  +4.52299728766823283099e-004-j8.22644160796072616837e-003
  +3.99451437616043061093e-004-j8.14103621450799029569e-003
  +3.48235769523522393533e-004-j8.05688180026833608571e-003
  +2.98594042505821461592e-004-j7.97395711879399574085e-003
  +2.50470100938586352508e-004-j7.89224105727195403281e-003
  +2.03810191774448604563e-004-j7.81171266683305769163e-003
  +1.58562847340480120480e-004-j7.73235118899451550484e-003
  +1.14678774354922267714e-004-j7.65413607862177030466e-003
  +7.21107488214502129848e-005-j7.57704702375882124810e-003
  +3.08135164771562134085e-005-j7.50106396264259029510e-003
  -9.25630151238009352219e-006-j7.42616709818680418437e-003
</dep>
<dep Gain acfrequency>
  -2.35024804179014036587e-002
  -4.19093680783597030692e-002
  -7.24642136420196592006e-002
  -1.14985189403575965850e-001
  -1.69223824296967195746e-001
  -2.34870735338314207130e-001
  -3.11562520661988529014e-001
  -3.98889510505361644110e-001
  -4.96404056215175859545e-001
  -6.03629042094391943252e-001
  -7.20066327907615710835e-001
  -8.45204867008043425614e-001
  -9.78528291565555652376e-001
  -1.11952180745695195618e+000
  -1.26767829270231335848e+000
  -1.42250354139827872579e+000
  -1.58352063740880888432e+000
  -1.75027347713093717196e+000
  -1.92232948786307944467e+000
  -2.09928160779882500009e+000
  -2.28074960610476651368e+000
  -2.46638082789670232131e+000
  -2.65585045033789413083e+000
  -2.84886133369822491801e+000
  -3.04514354611165494191e+000
  -3.24445363389591134862e+000
  -3.44657370143667307616e+000
  -3.65131035640710344126e+000
  -3.85849356795397113729e+000
  -4.06797547775819623439e+000
  -4.27962919678032616133e+000
  -4.49334761414810746061e+000
  -4.70904223908311347913e+000
  -4.92664209199496294644e+000
  -5.14609265685977401716e+000
  -5.36735490368752543588e+000
  -5.59040438720238253012e+000
  -5.81523042573866977278e+000
  -6.04183536272090471186e+000
  -6.27023391188073375702e+000
  -6.50045258650599677708e+000
  -6.73252921246161850632e+000
  -6.96651252442249990793e+000
  -7.20246184467530170537e+000
  -7.44044684394703104147e+000
  -7.68054738397912828418e+000
  -7.92285344196746343925e+000
  -8.16746511751957982028e+000
  -8.41449272343421483811e+000
  -8.66405696238388678410e+000
  -8.91628919248438478462e+000
  -9.17133178577581986701e+000
  -9.42933858483563014374e+000
  -9.69047546411771065777e+000
  -9.95492100419578562764e+000
  -1.02228672889222238496e+001
  -1.04945208376485421553e+001
  -1.07701036871533268879e+001
  -1.10498546408698459231e+001
  -1.13340307064993623953e+001
  -1.16229087472661554159e+001
  -1.19167873770775791797e+001
  -1.22159891359027206192e+001
  -1.25208629890389886441e+001
  -1.28317872029338850837e+001
  -1.31491726613050516903e+001
  -1.34734666990221114702e+001
  -1.38051575483222883634e+001
  -1.41447795134093929903e+001
  -1.44929190166398953465e+001
  -1.48502216940856701655e+001
  -1.52174007626594587350e+001
  -1.55952469384517105055e+001
  -1.59846402609574855802e+001
  -1.63865642767589925199e+001
  -1.68021231678727893666e+001
  -1.72325625871126852928e+001
  -1.76792952039602759839e+001
  -1.81439322968333485164e+001
  -1.86283231920899012835e+001
  -1.91346050087282932850e+001
  -1.96652661169330613689e+001
  -2.02232281110541798341e+001
  -2.08119531806737469992e+001
  -2.14355869480934728699e+001
  -2.20991518289542767661e+001
  -2.28088140021829417492e+001
  -2.35722604050770740969e+001
  -2.43992450917151089129e+001
  -2.53024053489048554866e+001
  -2.62985250804602124219e+001
  -2.74105762230909100197e+001
  -2.86711949670075796348e+001
  -3.01290038867632077313e+001
  -3.18611335206784396235e+001
  -3.40010608939684502161e+001
  -3.68117743284955452054e+001
  -4.09379140511713472961e+001
  -4.89348096797097866784e+001
  -5.49793079518411147433e+001
</dep>
<dep Vout acfrequency>
  +1.39522960777257787335e+000-j5.24991782867833683968e-002
  +1.38933033703905639555e+000-j1.04585868444861784798e-001
  +1.37959276704093025678e+000-j1.55857435692371176783e-001
  +1.36615519378701733011e+000-j2.05930462035527950260e-001
  +1.34920441791451195535e+000-j2.54449171214823077758e-001
  +1.32896946075167843304e+000-j3.01092543943377310978e-001
  +1.30571418088005719582e+000-j3.45579856084558101337e-001
  +1.27972921615041279608e+000-j3.87674490508736147021e-001
  +1.25132368025978291115e+000-j4.27185992760230892618e-001
  +1.22081701344113802143e+000-j4.63970449645614013701e-001
  +1.18853133061216764688e+000-j4.97929359411762917365e-001
  +1.15478453651131873769e+000-j5.29007226825739529374e-001
  +1.11988439540058903887e+000-j5.57188154362841192579e-001
  +1.08412366146122440824e+000-j5.82491713224481122424e-001
  +1.04777630191327730813e+000-j6.04968368791955479757e-001
  +1.01109478280826636798e+000-j6.24694709518969215623e-001
  +9.74308339795209921164e-001-j6.41768691776806177174e-001
  +9.37622123408969443403e-001-j6.56305071095401371117e-001
  +9.01217089547575511688e-001-j6.68431147087425903131e-001
  +8.65250498788900479497e-001-j6.78282908526876671118e-001
  +8.29856890553526627130e-001-j6.86001628881747649302e-001
  +7.95149407260856699864e-001-j6.91730932349336025133e-001
  +7.61221357144824750662e-001-j6.95614326547942751766e-001
  +7.28147920243261359552e-001-j6.97793180291627734846e-001
  +6.95987918629236923529e-001-j6.98405112715693277003e-001
  +6.64785588026210461088e-001-j6.97582752602775579831e-001
  +6.34572302748701466690e-001-j6.95452823172194034562e-001
