<Qucs Dataset 0.0.19>
<indep Lg 1>
  +3.40666666666666726072e-007
</indep>
<indep Rg 1>
  +5.67777777777777785673e+001
</indep>
<indep Rf 1>
  +5.11000000000000000000e+002
</indep>
<indep acfrequency 100>
  +1.00000000000000000000e+006
  +2.00000000000000000000e+006
  +3.00000000000000000000e+006
  +4.00000000000000000000e+006
  +5.00000000000000000000e+006
  +6.00000000000000000000e+006
  +7.00000000000000000000e+006
  +8.00000000000000000000e+006
  +9.00000000000000000000e+006
  +1.00000000000000000000e+007
  +1.10000000000000000000e+007
  +1.20000000000000000000e+007
  +1.30000000000000000000e+007
  +1.40000000000000000000e+007
  +1.50000000000000000000e+007
  +1.60000000000000000000e+007
  +1.70000000000000000000e+007
  +1.80000000000000000000e+007
  +1.90000000000000000000e+007
  +2.00000000000000000000e+007
  +2.10000000000000000000e+007
  +2.20000000000000000000e+007
  +2.30000000000000000000e+007
  +2.40000000000000000000e+007
  +2.50000000000000000000e+007
  +2.60000000000000000000e+007
  +2.70000000000000000000e+007
  +2.80000000000000000000e+007
  +2.90000000000000000000e+007
  +3.00000000000000000000e+007
  +3.10000000000000000000e+007
  +3.20000000000000000000e+007
  +3.30000000000000000000e+007
  +3.40000000000000000000e+007
  +3.50000000000000000000e+007
  +3.60000000000000000000e+007
  +3.70000000000000000000e+007
  +3.80000000000000000000e+007
  +3.90000000000000000000e+007
  +4.00000000000000000000e+007
  +4.10000000000000000000e+007
  +4.20000000000000000000e+007
  +4.30000000000000000000e+007
  +4.40000000000000000000e+007
  +4.50000000000000000000e+007
  +4.60000000000000000000e+007
  +4.70000000000000000000e+007
  +4.80000000000000000000e+007
  +4.90000000000000000000e+007
  +5.00000000000000000000e+007
  +5.10000000000000000000e+007
  +5.20000000000000000000e+007
  +5.30000000000000000000e+007
  +5.40000000000000000000e+007
  +5.50000000000000000000e+007
  +5.60000000000000000000e+007
  +5.70000000000000000000e+007
  +5.80000000000000000000e+007
  +5.90000000000000000000e+007
  +6.00000000000000000000e+007
  +6.10000000000000000000e+007
  +6.20000000000000000000e+007
  +6.30000000000000000000e+007
  +6.40000000000000000000e+007
  +6.50000000000000000000e+007
  +6.60000000000000000000e+007
  +6.70000000000000000000e+007
  +6.80000000000000000000e+007
  +6.90000000000000000000e+007
  +7.00000000000000000000e+007
  +7.10000000000000000000e+007
  +7.20000000000000000000e+007
  +7.30000000000000000000e+007
  +7.40000000000000000000e+007
  +7.50000000000000000000e+007
  +7.60000000000000000000e+007
  +7.70000000000000000000e+007
  +7.80000000000000000000e+007
  +7.90000000000000000000e+007
  +8.00000000000000000000e+007
  +8.10000000000000000000e+007
  +8.20000000000000000000e+007
  +8.30000000000000000000e+007
  +8.40000000000000000000e+007
  +8.50000000000000000000e+007
  +8.60000000000000000000e+007
  +8.70000000000000000000e+007
  +8.80000000000000000000e+007
  +8.90000000000000000000e+007
  +9.00000000000000000000e+007
  +9.10000000000000000000e+007
  +9.20000000000000000000e+007
  +9.30000000000000000000e+007
  +9.40000000000000000000e+007
  +9.50000000000000000000e+007
  +9.60000000000000000000e+007
  +9.70000000000000000000e+007
  +9.80000000000000000000e+007
  +9.90000000000000000000e+007
  +1.00000000000000000000e+008
</indep>
<dep I_coil acfrequency>
  +1.01527000115733068153e-001-j2.61842594685038690394e-003
  +1.01183600818362473550e-001-j7.41886379936029100035e-003
  +1.00593709155897090279e-001-j1.16820492752721296487e-002
  +9.97772809411972966265e-002-j1.57536009147722505519e-002
  +9.87476265687100562829e-002-j1.96870478858923170229e-002
  +9.75196585010248556680e-002-j2.34892906434801783389e-002
  +9.61101845164355622630e-002-j2.71559873267417060949e-002
  +9.45375051026282331446e-002-j3.06805611393308058643e-002
  +9.28208862559664477088e-002-j3.40572509693200659031e-002
  +9.09800200544650383705e-002-j3.72822982868831198644e-002
  +8.90345152753877905338e-002-j4.03543987933305328686e-002
  +8.70034407525364511526e-002-j4.32748088505566924633e-002
  +8.49049341380522515355e-002-j4.60472704381473946222e-002
  +8.27558814416330251751e-002-j4.86778371517371452604e-002
  +8.05716667966503291565e-002-j5.11746499812714764066e-002
  +7.83659872327613499232e-002-j5.35476951217220970003e-002
  +7.61507237287282479077e-002-j5.58085665237577563391e-002
  +7.39358573181869288549e-002-j5.79702494905749432519e-002
  +7.17294174287116531596e-002-j6.00469369240772335439e-002
  +6.95374485760028859804e-002-j6.20538862474713306949e-002
  +6.73639808067563183869e-002-j6.40073223337990077075e-002
  +6.52109884842205084210e-002-j6.59243898000848316254e-002
  +6.30783208394141425845e-002-j6.78231566503772614896e-002
  +6.09635857450641985289e-002-j6.97226702995845104560e-002
  +5.88619649732540564657e-002-j7.16430662577896976151e-002
  +5.67659342257086918515e-002-j7.36057288769252360261e-002
  +5.46648536320952990741e-002-j7.56335020306797001233e-002
  +5.25443833122638676025e-002-j7.77509446112786967165e-002
  +5.03856623839351175365e-002-j7.99846198578643002852e-002
  +4.81641666663198478315e-002-j8.23633964269373242129e-002
  +4.58481273567330066543e-002-j8.49187185322303889068e-002
  +4.33963470389434197161e-002-j8.76847651534526650874e-002
  +4.07551864030636368241e-002-j9.06983511379468587688e-002
  +3.78544127166424923536e-002-j9.39983031148798192644e-002
  +3.46015022099864510974e-002-j9.76238300326084107450e-002
  +3.08738937193744032716e-002-j1.01611031849231633895e-001
  +2.65086674566094894490e-002-j1.05986033354550257535e-001
  +2.12893533583776509155e-002-j1.10752111301825426071e-001
  +1.49305093687158840082e-002-j1.15866366986753843715e-001
  +7.06338033027271820774e-003-j1.21198844942724065499e-001
  -2.76753015940381114773e-003-j1.26464087866144825334e-001
  -1.50731914377537565275e-002-j1.31115144614874556961e-001
  -3.03057075381098842137e-002-j1.34203349534872007354e-001
  -4.85854740876024981944e-002-j1.34257418741267814388e-001
  -6.92163651636948373813e-002-j1.29350386351529372808e-001
  -9.01330730860523815506e-002-j1.17653179561688109311e-001
  -1.07857119491616221252e-001-j9.86202650584020318325e-002
  -1.18687700938086504454e-001-j7.41410572860164013287e-002
  -1.20748376674911686579e-001-j4.82444643707526585330e-002
  -1.15017316235555028259e-001-j2.50874421951155224253e-002
  -1.04326981823952530393e-001-j7.05970047705516134950e-003
  -9.16137737411671232435e-002+j5.49750481835556588373e-003
  -7.89220614478252369128e-002+j1.34511818775118110331e-002
  -6.73184782103347645332e-002+j1.80060588755264691652e-002
  -5.71931204265209852666e-002+j2.02406897663385092201e-002
  -4.85692164845722695876e-002+j2.09701539678858010773e-002
  -4.13079522716131367077e-002+j2.07609651181315663093e-002
  -3.52190161533263018656e-002+j1.99896200804256067574e-002
  -3.01122609580617844882e-002+j1.89000306328453680782e-002
  -2.58181197045481564123e-002+j1.76476256602493067338e-002
  -2.21931103072963188672e-002+j1.63300768713412376709e-002
  -1.91189359930809960053e-002+j1.50077593209678068764e-002
  -1.64992734496653969956e-002+j1.37170903206506912542e-002
  -1.42560806692875619711e-002+j1.24791481157169037441e-002
  -1.23261662781885168727e-002+j1.13052267647049727722e-002
  -1.06582623709413799873e-002+j1.02004188255304367033e-002
  -9.21062805043663598847e-003+j9.16593043943232654858e-003
  -7.94912864397714045983e-003+j8.20057993602673826472e-003
  -6.84571240819922301191e-003+j7.30176844990443156547e-003
  -5.87720788967076128440e-003+j6.46610752947927597961e-003
  -5.02437521111186256167e-003+j5.68982291824202904978e-003
  -4.27115656390334146736e-003+j4.96901172823520018151e-003
  -3.60408234332211920362e-003+j4.29980335089624396416e-003
  -3.01179880095257205413e-003+j3.67845711666386042393e-003
  -2.48469070008110019809e-003+j3.10141846529782879566e-003
  -2.01457844514164007010e-003+j2.56534803870945129003e-003
  -1.59447380150724523674e-003+j2.06713327160181663603e-003
  -1.21838190017234653667e-003+j1.60388885420153647250e-003
  -8.81139969817674052061e-004+j1.17295031096890716923e-003
  -5.78285347663708365964e-004+j7.71863514977726931227e-004
  -3.05946941804187183458e-004+j3.98372001414062904510e-004
  -6.07555671395139374174e-005+j5.04032999115423222414e-005
  +1.60230458333358681674e-004-j2.73944927554727068499e-004
  +3.59587320794425228509e-004-j5.76418448801086554661e-004
  +5.39577602267252197724e-004-j8.58619425173148668497e-004
  +7.02193881377404915262e-004-j1.12201860942707045722e-003
  +8.49195509476369800664e-004-j1.36796669707339333885e-003
  +9.82139745628008700370e-004-j1.59770480709621703723e-003
  +1.10240821001963106018e-003-j1.81237410395343055865e-003
  +1.21122943682907646505e-003-j2.01302459505521688307e-003
  +1.30969816504686331106e-003-j2.20062315070327068484e-003
  +1.39879189146144516757e-003-j2.37606079990634096871e-003
  +1.47938511747654124345e-003-j2.54015935807837874710e-003
  +1.55226164697288724834e-003-j2.69367744222942561219e-003
  +1.61812523157009533620e-003-j2.83731592744436780795e-003
  +1.67760881029948454891e-003-j2.97172289545097898303e-003
  +1.73128255022858361899e-003-j3.09749812260717112197e-003
  +1.77966086076428707009e-003-j3.21519715128858098868e-003
  +1.82320852762037533164e-003-j3.32533498454948327552e-003
  +1.86234608937863250003e-003-j3.42838944055676641751e-003
</dep>
<dep I_meas acfrequency>
  +9.97700972494297150250e-002-j2.56596652427662583890e-003
  +9.94333715611061402795e-002-j7.27623066182399129420e-003
  +9.88548943968990539988e-002-j1.14586398463219860805e-002
  +9.80542585498508922903e-002-j1.54528772181326354979e-002
  +9.70445203024923180868e-002-j1.93115880740899192869e-002
  +9.58403050443294296512e-002-j2.30415913521475369807e-002
  +9.44580964621232477274e-002-j2.66386528742377504120e-002
  +9.29158420040750304691e-002-j3.00963363605031911097e-002
  +9.12324359292049913428e-002-j3.34090010209997234636e-002
  +8.94271903094674830426e-002-j3.65729679086423606349e-002
  +8.75193354775301024517e-002-j3.95869639487449048731e-002
  +8.55275721877573336105e-002-j4.24522268878115352497e-002
  +8.34696879138439457035e-002-j4.51724320343676530309e-002
  +8.13622425528765097491e-002-j4.77535218362900235056e-002
  +7.92203229953734183733e-002-j5.02034861511963942382e-002
  +7.70573614404076179252e-002-j5.25321248703564669391e-002
  +7.48850088960928139681e-002-j5.47508151827271957734e-002
  +7.27130528522848956774e-002-j5.68722994817200538931e-002
  +7.05493665498435201799e-002-j5.89105053020873778435e-002
  +6.83998762315272956780e-002-j6.08804051659623951531e-002
  +6.62685320438394093179e-002-j6.27979215713235783269e-002
  +6.41572674728687342149e-002-j6.46798804246820069341e-002
  +6.20659310457845406206e-002-j6.65440148707358014590e-002
  +5.99921720975397781972e-002-j6.84090205398274059378e-002
  +5.79312592621445965335e-002-j7.02946624976529960138e-002
  +5.58758054635894452211e-002-j7.22219333221526954558e-002
  +5.38153657227569831578e-002-j7.42132602320944023688e-002
  +5.17358631946981950556e-002-j7.62927562623677418818e-002
  +4.96187829249149989219e-002-j7.84865047232300161451e-002
  +4.74400500937099262044e-002-j8.08228552840702663129e-002
  +4.51684771296462436729e-002-j8.33326898205832555799e-002
  +4.27636189674294106555e-002-j8.60495795234109267513e-002
  +4.01728138559083736148e-002-j8.90096888208324749092e-002
  +3.73271062211991480617e-002-j9.22511639488701601364e-002
  +3.41356509180514786084e-002-j9.58125347608573263436e-002
  +3.04781049585469802909e-002-j9.97292888895526113968e-002
  +2.61944895268684460610e-002-j1.04027132642044578548e-001
  +2.10722311383180760380e-002-j1.08709354254509296678e-001
  +1.48310092352802284921e-002-j1.13733921438413057570e-001
  +7.10865887908666838069e-003-j1.18973340455297393881e-001
  -2.54221945279880633811e-003-j1.24147443503108315110e-001
  -1.46235907878758033401e-002-j1.28719292614157210242e-001
  -2.95797528923061048278e-002-j1.31757441874822411876e-001
  -4.75294433833666971068e-002-j1.31817114208155422572e-001
  -6.77897250003419438169e-002-j1.27005765546403581734e-001
  -8.83330758292582007840e-002-j1.15526509929343254579e-001
  -1.05743781150500232302e-001-j9.68424213961886215518e-002
  -1.16386957527026879688e-001-j7.28076412750051499279e-002
  -1.18418523860932170533e-001-j4.73779479322551308473e-002
  -1.12797611823989438196e-001-j2.46358526455610002404e-002
  -1.02304899854074829446e-001-j6.92905479168837417497e-003
  -8.98238440901337753530e-002+j5.40631308206359489921e-003
  -7.73623355393508460587e-002+j1.32209552123542743024e-002
  -6.59682350653753302172e-002+j1.76975588616553637655e-002
  -5.60249936256925970546e-002+j1.98951410727370506248e-002
  -4.75557027750567809510e-002+j2.06141111007150067136e-002
  -4.04242406135952858648e-002+j2.04108400457378297288e-002
  -3.44438483840783099543e-002+j1.96551183134733992164e-002
  -2.94278829663090976676e-002+j1.85865362496141148241e-002
  -2.52098806057773350275e-002+j1.73577858887281819000e-002
  -2.16489732306016854912e-002+j1.60648320281710221824e-002
  -1.86290121351119948578e-002+j1.47670049909270021532e-002
  -1.60554185261581744415e-002+j1.35001006916885685216e-002
  -1.38515607700460535723e-002+j1.22848455504184113363e-002
  -1.19553873605020843929e-002+j1.11323526336669902798e-002
  -1.03165536506418069329e-002+j1.00476409068573861033e-002
  -8.89406930447263384398e-003+j9.03190950388021648876e-003
  -7.65441258457282003302e-003+j8.08401004089403553421e-003
  -6.57003479512887917507e-003+j7.20140030205004572778e-003
  -5.61817949344186381294e-003+j6.38076097675428083322e-003
  -4.77995098156881997181e-003+j5.61839250775128442456e-003
  -4.03957836988703359454e-003+j4.91046789966172268077e-003
  -3.38383245014645681406e-003+j4.25319094253697512625e-003
  -2.80156187779691864120e-003+j3.64289227979806146118e-003
  -2.28332263391367194447e-003+j3.07608470021738253722e-003
  -1.82108061208690295840e-003+j2.54949181360060277146e-003
  -1.40797173562729632280e-003+j2.06005951872482214599e-003
  -1.03810752320924841452e-003+j1.60495652741634783900e-003
  -7.06416718848234593577e-004+j1.18156811562897300430e-003
  -4.08515672590760458606e-004+j7.87485873077408207732e-004
  -1.40601750083443210624e-004+j4.20495283378700013700e-004
  +1.00634724083580880767e-004+j7.85623340697676555717e-005
  +3.18083537230586768825e-004-j2.40180069671578965773e-004
  +5.14275485868841706130e-004-j5.37445401084004985813e-004
  +6.91433339104525687691e-004-j8.14806223809476544429e-004
  +8.51514659982611360478e-004-j1.07370615472368331061e-003
  +9.96247924640294903881e-004-j1.31547099786819996978e-003
  +1.12716310146953918765e-003-j1.54131902541642133372e-003
  +1.24561763259431121376e-003-j1.75237041702869700451e-003
  +1.35281858465675095329e-003-j1.94965589090474733514e-003
  +1.44984159594267270413e-003-j2.13412457244633235395e-003
  +1.53764713464406830613e-003-j2.30665115280045268653e-003
  +1.61709449218272070456e-003-j2.46804239212973074852e-003
  +1.68895386240175285689e-003-j2.61904302209363219756e-003
  +1.75391679766932870495e-003-j2.76034110026309852798e-003
  +1.81260528448054796143e-003-j2.89257286626860539783e-003
  +1.86557964140023286106e-003-j3.01632714608681979512e-003
  +1.91334540898252460257e-003-j3.13214934759430694081e-003
  +1.95635937504172550266e-003-j3.24054508649195558215e-003
  +1.99503485600582494697e-003-j3.34198347839930864217e-003
</dep>
<dep V2.i acfrequency>
  -5.00182752309785150224e-002+j1.28144051540930660645e-003
  -4.98481694863026278397e-002+j3.63778685753650410373e-003
  -4.95560208129274745725e-002+j5.72926890031320770053e-003
  -4.91516779663288064239e-002+j7.72607230959047180940e-003
  -4.86417217821666636457e-002+j9.65448363630067203645e-003
  -4.80335276096523211553e-002+j1.15178201787979380549e-002
  -4.73354088618872029248e-002+j1.33138638101846749906e-002
  -4.65564176826784859031e-002+j1.50392985738317420952e-002
  -4.57060842310604217853e-002+j1.66912133256757570787e-002
  -4.47941500028328151717e-002+j1.82676859150397649656e-002
  -4.38303160649968562290e-002+j1.97680048760274229558e-002
  -4.28240174272333240513e-002+j2.11927208028933368456e-002
  -4.17842298218493793382e-002+j2.25436081043196429041e-002
  -4.07193115634968197392e-002+j2.38235778079835293364e-002
  -3.96368802360423447273e-002+j2.50365654408487015026e-002
  -3.85437216493995787880e-002+j2.61874098795704841891e-002
  -3.74457267845437896669e-002+j2.72817343510922127869e-002
  -3.63478512180351806538e-002+j2.83258375965769748639e-002
  -3.52540907437762993104e-002+j2.93266008802080847817e-002
  -3.41674664059796809323e-002+j3.02914147462663013721e-002
  -3.30900118237625190387e-002+j3.12281280814068022689e-002
  -3.20227553273975118486e-002+j3.21450210498487043420e-002
  -3.09656888976813857162e-002+j3.30508027701480813776e-002
  -2.99177149969323055712e-002+j3.39546341112465371870e-002
  -2.88765608965427973687e-002+j3.48661755917770502244e-002
  -2.78386477845190376257e-002+j3.57956599119959861799e-002
  -2.67988983756719222062e-002+j3.67539878777940129395e-002
  -2.57504615373749176643e-002+j3.77528450039592566867e-002
  -2.46843248272063942039e-002+j3.88048332273651999658e-002
  -2.35887749756109113553e-002+j3.99236067967343594143e-002
  -2.24486508848597381138e-002+j4.11239915114385914952e-002
  -2.12443122100193920732e-002+j4.24220486092936402422e-002
  -1.99502171803799463468e-002+j4.38350125352943778556e-002
  -1.85329650269454061784e-002+j4.53809747355528661505e-002
  -1.69486127559674952525e-002+j4.70780843975408952451e-002
  -1.51390331412722227433e-002+j4.89428587381331020589e-002
  -1.30270731047282036646e-002+j5.09868850300243051099e-002
  -1.05103864136863369566e-002+j5.32106689938970575660e-002
  -7.45426631646560651501e-003+j5.55925307385175260233e-002
  -3.68507946605633671111e-003+j5.80692101117080416994e-002
  +1.01100027086557038743e-003+j6.05035014499750653516e-002
  +6.87266618300601955793e-003+j6.26343224102859919000e-002
  +1.41087165161630084809e-002+j6.40110349866648276063e-002
  +2.27684808326153870217e-002+j6.39377146437107579668e-002
  +3.25130371028872905415e-002+j6.15072896890028336658e-002
  +4.23568771145294148406e-002+j5.58660223460763216696e-002
  +5.06532407748975441186e-002+j4.67740867986039254856e-002
  +5.56628710099419804491e-002+j3.51435876584220360797e-002
  +5.65197764512140113369e-002+j2.28883535268432150578e-002
  +5.37077489973800947798e-002+j1.19679826260179218017e-002
  +4.85778121984055816229e-002+j3.49727155262678952863e-003
  +4.25195304338150878443e-002-j2.37764556881304338701e-003
  +3.64946419552399647923e-002-j6.07706894133579113987e-003
  +3.10010500698181326595e-002-j8.17586076007137743660e-003
  +2.62175696232589752754e-002-j9.18575892204212020309e-003
  +2.21509893595070311845e-002-j9.49208663728794838077e-003
  +1.87327978833394491465e-002-j9.36185632092179954855e-003
  +1.58711261218684798746e-002-j8.97201141461084414330e-003
  +1.34748667598867874484e-002-j8.43683601837349160524e-003
  +1.14630951779498922033e-002-j7.82890345898346745601e-003
  +9.76751235831476577465e-003-j7.19362596960470418450e-003
  +8.33191407261737494727e-003-j6.55891984426532504565e-003
  +7.11060404966353150347e-003-j5.94149289913097414240e-003
  +6.06660452676890168261e-003-j5.35089862169785789037e-003
  +5.17000620869340846847e-003-j4.79214368914222116347e-003
  +4.39656637480000892643e-003-j4.26736601213027061386e-003
  +3.72656435207715510879e-003-j3.77691644044470063030e-003
  +3.14388601457553590671e-003-j3.32005705334113918742e-003
  +2.63529886793459518224e-003-j2.89541197330875832092e-003
  +2.18988045032401240642e-003-j2.50125773077993374810e-003
  +1.79856789725284997410e-003-j2.13570916027098827925e-003
  +1.45380241014930614366e-003-j1.79683704012017077083e-003
  +1.14924777982849230483e-003-j1.48274104435718013205e-003
  +8.79566666495404034243e-004-j1.19159343147219468420e-003
  +6.40241992584831545385e-004-j9.21663618136179261034e-004
  +4.27433672031100268373e-004-j6.71330342590538008303e-004
