<Qucs Dataset 0.0.19>
<indep Rf 1>
  +2.15000000000000000000e+002
</indep>
<indep Rg 1>
  +2.36999999999999992895e+001
</indep>
<indep Lg 1>
  +2.20000000000000011220e-007
</indep>
<indep acfrequency 100>
  +1.00000000000000000000e+006
  +2.00000000000000000000e+006
  +3.00000000000000000000e+006
  +4.00000000000000000000e+006
  +5.00000000000000000000e+006
  +6.00000000000000000000e+006
  +7.00000000000000000000e+006
  +8.00000000000000000000e+006
  +9.00000000000000000000e+006
  +1.00000000000000000000e+007
  +1.10000000000000000000e+007
  +1.20000000000000000000e+007
  +1.30000000000000000000e+007
  +1.40000000000000000000e+007
  +1.50000000000000000000e+007
  +1.60000000000000000000e+007
  +1.70000000000000000000e+007
  +1.80000000000000000000e+007
  +1.90000000000000000000e+007
  +2.00000000000000000000e+007
  +2.10000000000000000000e+007
  +2.20000000000000000000e+007
  +2.30000000000000000000e+007
  +2.40000000000000000000e+007
  +2.50000000000000000000e+007
  +2.60000000000000000000e+007
  +2.70000000000000000000e+007
  +2.80000000000000000000e+007
  +2.90000000000000000000e+007
  +3.00000000000000000000e+007
  +3.10000000000000000000e+007
  +3.20000000000000000000e+007
  +3.30000000000000000000e+007
  +3.40000000000000000000e+007
  +3.50000000000000000000e+007
  +3.60000000000000000000e+007
  +3.70000000000000000000e+007
  +3.80000000000000000000e+007
  +3.90000000000000000000e+007
  +4.00000000000000000000e+007
  +4.10000000000000000000e+007
  +4.20000000000000000000e+007
  +4.30000000000000000000e+007
  +4.40000000000000000000e+007
  +4.50000000000000000000e+007
  +4.60000000000000000000e+007
  +4.70000000000000000000e+007
  +4.80000000000000000000e+007
  +4.90000000000000000000e+007
  +5.00000000000000000000e+007
  +5.10000000000000000000e+007
  +5.20000000000000000000e+007
  +5.30000000000000000000e+007
  +5.40000000000000000000e+007
  +5.50000000000000000000e+007
  +5.60000000000000000000e+007
  +5.70000000000000000000e+007
  +5.80000000000000000000e+007
  +5.90000000000000000000e+007
  +6.00000000000000000000e+007
  +6.10000000000000000000e+007
  +6.20000000000000000000e+007
  +6.30000000000000000000e+007
  +6.40000000000000000000e+007
  +6.50000000000000000000e+007
  +6.60000000000000000000e+007
  +6.70000000000000000000e+007
  +6.80000000000000000000e+007
  +6.90000000000000000000e+007
  +7.00000000000000000000e+007
  +7.10000000000000000000e+007
  +7.20000000000000000000e+007
  +7.30000000000000000000e+007
  +7.40000000000000000000e+007
  +7.50000000000000000000e+007
  +7.60000000000000000000e+007
  +7.70000000000000000000e+007
  +7.80000000000000000000e+007
  +7.90000000000000000000e+007
  +8.00000000000000000000e+007
  +8.10000000000000000000e+007
  +8.20000000000000000000e+007
  +8.30000000000000000000e+007
  +8.40000000000000000000e+007
  +8.50000000000000000000e+007
  +8.60000000000000000000e+007
  +8.70000000000000000000e+007
  +8.80000000000000000000e+007
  +8.90000000000000000000e+007
  +9.00000000000000000000e+007
  +9.10000000000000000000e+007
  +9.20000000000000000000e+007
  +9.30000000000000000000e+007
  +9.40000000000000000000e+007
  +9.50000000000000000000e+007
  +9.60000000000000000000e+007
  +9.70000000000000000000e+007
  +9.80000000000000000000e+007
  +9.90000000000000000000e+007
  +1.00000000000000000000e+008
</indep>
<dep I_coil acfrequency>
  +2.92859352745033184318e-002-j1.25224768337654540802e-003
  +2.90416048335379387013e-002-j3.11510296219025869385e-003
  +2.86371693725965409394e-002-j4.78439102024047404477e-003
  +2.80893815448401036605e-002-j6.34409673170649793250e-003
  +2.74160094420210359578e-002-j7.79728946323313999722e-003
  +2.66370399211263361727e-002-j9.13752940156293755325e-003
  +2.57735702684148797192e-002-j1.03591652603150612133e-002
  +2.48466235625927414632e-002-j1.14596539500283287755e-002
  +2.38761473885917112348e-002-j1.24398972204735266955e-002
  +2.28802729280956941571e-002-j1.33038873328048482675e-002
  +2.18748464672060619063e-002-j1.40580907165859508162e-002
  +2.08732073544217466843e-002-j1.47107644522826153111e-002
  +1.98861656239553707959e-002-j1.52713082889830223388e-002
  +1.89221252051039040554e-002-j1.57497053091850934547e-002
  +1.79873008731242928215e-002-j1.61560731508624128017e-002
  +1.70859848922507891189e-002-j1.65003277847660945188e-002
  +1.62208293488066250532e-002-j1.67919500771104533710e-002
  +1.53931201755470627168e-002-j1.70398395172344681303e-002
  +1.46030275513408247523e-002-j1.72522376825537705758e-002
  +1.38498241564964982148e-002-j1.74367047084317654260e-002
  +1.31320676574748999160e-002-j1.76001340617957385826e-002
  +1.24477469969029985036e-002-j1.77487934727862568807e-002
  +1.17943939115374360482e-002-j1.78883824462787097143e-002
  +1.11691619417150275057e-002-j1.80240990700375643130e-002
  +1.05688752826539195118e-002-j1.81607107113278647137e-002
  +9.99004943333683254059e-003-j1.83026246104298004336e-002
  +9.42888481391936789100e-003-j1.84539553120666548203e-002
  +8.88123349558803641679e-003-j1.86185863336394835654e-002
  +8.34253791573733027853e-003-j1.88002234100676408890e-002
  +7.80773898980444570200e-003-j1.90024360160903418859e-002
  +7.27114932433692729569e-003-j1.92286824715453483203e-002
  +6.72628535284141172018e-003-j1.94823115362516667559e-002
  +6.16565014805625817573e-003-j1.97665295182872999269e-002
  +5.58045667680704977204e-003-j2.00843158784599698508e-002
  +4.96027982301483136296e-003-j2.04382610286325330784e-002
  +4.29262575458851797228e-003-j2.08302859409482642172e-002
  +3.56241149684384701690e-003-j2.12611821677436453604e-002
  +2.75136049429408526684e-003-j2.17298802351251173215e-002
  +1.83735031803567133019e-003-j2.22323116404999909790e-002
  +7.93812424685362474225e-004-j2.27596746943552648290e-002
  -4.10591659427999699367e-004-j2.32958555311872789195e-002
  -1.81156623190156275405e-003-j2.38137234756408029679e-002
  -3.44721656480542065770e-003-j2.42700968764865236682e-002
  -5.35313067286330521860e-003-j2.45995444639662275144e-002
  -7.55249961014390919917e-003-j2.47081837934798494161e-002
  -1.00391454016244378866e-002-j2.44706988718872940625e-002
  -1.27530763762812027196e-002-j2.37369950860372956603e-002
  -1.55539761084387516410e-002-j2.23575956321000121618e-002
  -1.82085317640694500929e-002-j2.02338560561174871100e-002
  -2.04160130293240676957e-002-j1.73831935599714701435e-002
  -2.18859055753779264963e-002-j1.39835539466648013651e-002
  -2.24419601822371771183e-002-j1.03521049643975418530e-002
  -2.20892652795576134583e-002-j6.85077632203212258388e-003
  -2.09977492447754147953e-002-j3.77206079779361571486e-003
  -1.94204165363711829528e-002-j1.27319855256009177406e-003
  -1.76056149565930707135e-002+j6.20220052709846789846e-004
  -1.57453367204134671298e-002+j1.96950613215212972512e-003
  -1.39631773473938465557e-002+j2.87400943874829102251e-003
  -1.23252785227388993172e-002+j3.43727023909369284321e-003
  -1.08580045905858919159e-002+j3.75004232564692509613e-003
  -9.56370269105064237103e-003+j3.88488881381658093458e-003
  -8.43196838139191433281e-003+j3.89676650301071843957e-003
  -7.44673701974109952806e-003+j3.82591871025403460621e-003
  -6.59034896369140553440e-003+j3.70117755523109454724e-003
  -5.84567734919701643276e-003+j3.54289010483755826761e-003
  -5.19711033347374819213e-003+j3.36524857775666492998e-003
  -4.63089770018630490778e-003+j3.17804624398387424583e-003
  -4.13516748157880410092e-003+j2.98796038048777844523e-003
  -3.69978677362925922542e-003+j2.79947336108068945901e-003
  -3.31616166748657662314e-003+j2.61552751159441210227e-003
  -2.97702546151584063194e-003+j2.43798831329352988159e-003
  -2.67623876648359192848e-003+j2.26797129344395286682e-003
  -2.40861131375732888393e-003+j2.10607255302185580534e-003
  -2.16974811453098624658e-003+j1.95253134414040494665e-003
  -1.95591912863104372411e-003+j1.80734474375711124533e-003
  -1.76395008794679201622e-003+j1.67034852002807929390e-003
  -1.59113163719260745747e-003+j1.54127409555074638102e-003
  -1.43514397859404330832e-003+j1.41978857615730476131e-003
  -1.29399446120960644711e-003+j1.30552275697415971940e-003
  -1.16596588883030919358e-003+j1.19809057867348799607e-003
  -1.04957366112259681441e-003+j1.09710249703419740995e-003
  -9.43530177199768138076e-004+j1.00217451797711778506e-003
  -8.46715205804198390444e-004+j9.12934148300888616105e-004
  -7.58151159164077628055e-004+j8.29024156959398423467e-004
  -6.76982402099316534633e-004+j7.50104788309984915964e-004
  -6.02457887460097958089e-004+j6.75854888313195826047e-004
  -5.33916539471263832534e-004+j6.05972275192853074982e-004
  -4.70774913033003724033e-004+j5.40173592684256510983e-004
  -4.12516742760001323652e-004+j4.78193817274429034368e-004
  -3.58684065693815848797e-004+j4.19785542049922898080e-004
  -3.08869658177293726631e-004+j3.64718124734574218604e-004
  -2.62710573369100445704e-004+j3.12776762017665725495e-004
  -2.19882603299694049130e-004+j2.63761533756690699087e-004
  -1.80095519806916276769e-004+j2.17486447237892307257e-004
  -1.43088973472104043086e-004+j1.73778502017764708816e-004
  -1.08628950171948951550e-004+j1.32476788710399179640e-004
  -7.65047013213220592799e-005+j9.34316302119155922762e-005
  -4.65260777971082887107e-005+j5.65037700692625182840e-005
  -1.85212086881240538825e-005+j2.15636102643520426256e-005
  +7.66552456430434939975e-006-j1.15095011682982992587e-005
</dep>
<dep I_meas acfrequency>
  +2.81087062089970182721e-002-j1.19517571415895065313e-003
  +2.78753468665750361866e-002-j2.97652993466102338410e-003
  +2.74890409338781963045e-002-j4.57234132363348085709e-003
  +2.69658057187784627740e-002-j6.06332094954786272878e-003
  +2.63226157235939457746e-002-j7.45249976342694537418e-003
  +2.55785635304676059465e-002-j8.73376078944581094032e-003
  +2.47538021356877302459e-002-j9.90172194498319287181e-003
  +2.38684135390606552707e-002-j1.09539634092957922917e-002
  +2.29414523278492835101e-002-j1.18913530562718069983e-002
  +2.19902379444016846111e-002-j1.27177095458436105468e-002
  +2.10299071637802502399e-002-j1.34392142936787060276e-002
  +2.00732019837809791407e-002-j1.40637589270687698301e-002
  +1.91304482385770240060e-002-j1.46003265276025920999e-002
  +1.82096732778329363500e-002-j1.50584574761328075787e-002
  +1.73168131871285491119e-002-j1.54478208677416330163e-002
  +1.64559674713904043053e-002-j1.57778934247972194016e-002
  +1.56296687202797518479e-002-j1.60577365864193535860e-002
  +1.48391443295230601729e-002-j1.62958568597339238659e-002
  +1.40845556460742031557e-002-j1.65001327897422514490e-002
  +1.33652063964265818002e-002-j1.66777925677282466699e-002
  +1.26797169311154388216e-002-j1.68354282378597383540e-002
  +1.20261638763869867230e-002-j1.69790349024832934455e-002
  +1.14021865468851707481e-002-j1.71140657791608308269e-002
  +1.08050622749373773784e-002-j1.72454961546660255622e-002
  +1.02317528928286861911e-002-j1.73778910722460627758e-002
  +9.67892422480028449816e-003-j1.75154729414448914748e-002
  +9.14293969209524493014e-003-j1.76621861500885664331e-002
  +8.61982814844293107615e-003-j1.78217561943057947738e-002
  +8.10522484255107693307e-003-j1.79977407838994539480e-002
  +7.59428299927965115568e-003-j1.81935697662368410510e-002
  +7.08155186893781162655e-003-j1.84125693723387051648e-002
  +6.56081527995986540924e-003-j1.86579639861106857945e-002
  +6.02488273460387042252e-003-j1.89328449098438433840e-002
  +5.46532316340400409899e-003-j1.92400897974465551199e-002
  +4.87213004752156363109e-003-j1.95822075063947012574e-002
  +4.23330682426558985859e-003-j1.99610695862348329344e-002
  +3.53436555914554001445e-003-j2.03774694119387977942e-002
  +2.75774420773588872791e-003-j2.08304204945290449835e-002
  +1.88217687630868289739e-003-j2.13160643571519807515e-002
  +8.82112618459621514698e-004-j2.18260053571476542178e-002
  -2.72602222896105804949e-004-j2.23448329024671377141e-002
  -1.61634492286064296654e-003-j2.28465600549986880274e-002
  -3.18584066265024685310e-003-j2.32897804883121020691e-002
  -5.01545139367239392603e-003-j2.36116989366251320281e-002
  -7.12769650013287368873e-003-j2.37221464208451707223e-002
  -9.51694930014922689521e-003-j2.35006714996292623288e-002
  -1.21259278864393402197e-002-j2.28028747078797069947e-002
  -1.48201531207603869056e-002-j2.14847492884014668046e-002
  -1.73756447810519895625e-002-j1.94509079684871827309e-002
  -1.95033407103149224182e-002-j1.67173354523331638144e-002
  -2.09235948377012696831e-002-j1.34543177024865900915e-002
  -2.14662266529844977803e-002-j9.96622586207680100090e-003
  -2.11352176875895837738e-002-j6.60090375741627377604e-003
  -2.00931424985599273170e-002-j3.63987604325242963821e-003
  -1.85827545947186770214e-002-j1.23489140137322578501e-003
  -1.68426621076679661204e-002+j5.88834756569553961249e-004
  -1.50575305822900993441e-002+j1.88974455023712610384e-003
  -1.33463884982968628012e-002+j2.76300831063792202633e-003
  -1.17730590811214348712e-002+j3.30796753074280667356e-003
  -1.03631057125632575905e-002+j3.61177490637292148215e-003
  -9.11896462239685304252e-003+j3.74416116857632669951e-003
  -8.03077313979408229094e-003+j3.75796846624104011886e-003
  -7.08319208878539774421e-003+j3.69191275542818863817e-003
  -6.25932090315519263496e-003+j3.57374727084280516265e-003
  -5.54274984780357086317e-003+j3.42306936132757500327e-003
  -4.91850983352088572120e-003+j3.25355746813412328305e-003
  -4.37340991563420211641e-003+j3.07465776092406394698e-003
  -3.89605647894502010037e-003+j2.89281707876438195365e-003
  -3.47672177860779271427e-003+j2.71236849111016137606e-003
  -3.10715330220731654823e-003+j2.53616114701432334225e-003
  -2.78037138908120021533e-003+j2.36600596714664403869e-003
  -2.49047793824787571521e-003+j2.20299030280316334232e-003
  -2.23248573275099636282e-003+j2.04769993116924722484e-003
  -2.00217099644251026597e-003+j1.90037568604518999557e-003
  -1.79594842473942387269e-003+j1.76102399184767150105e-003
  -1.61076646142890443809e-003+j1.62949485407074923064e-003
  -1.44402011955014264108e-003+j1.50553683176721025613e-003
  -1.29347865998041345117e-003+j1.38883569632011196968e-003
  -1.15722568042395763596e-003+j1.27904150331353263711e-003
  -1.03360948414824406830e-003+j1.17578742073162030232e-003
  -9.21201922734429410819e-004+j1.07870268538687264989e-003
  -8.18764207596866600350e-004+j9.87421375431095545150e-004
  -7.25218448055113215113e-004+j9.01588203726525600455e-004
  -6.39623896661739295248e-004+j8.20862194728394002109e-004
  -5.61157068789601030587e-004+j7.44918863501854125637e-004
  -4.89095056325828054025e-004+j6.73451341676793886759e-004
  -4.22801480402548572092e-004+j6.06170770388032289708e-004
  -3.61714630191019607345e-004+j5.42806190237843226055e-004
  -3.05337417010546083394e-004+j4.83104093977881725308e-004
  -2.53228840302124793681e-004+j4.26827760543620389217e-004
  -2.04996716280157108498e-004+j3.73756455264013002452e-004
  -1.60291464209924583179e-004+j3.23684556464362679831e-004
  -1.18800781177894141522e-004+j2.76420650791420034493e-004
  -8.02450654398267090948e-005+j2.31786626634326506629e-004
  -4.43734722249145978638e-005+j1.89616785669082481411e-004
  -1.09605055527296639843e-005+j1.49756985623289683987e-004
  +2.01969345738247564744e-005+j1.12063822632756470809e-004
  +4.92821168725076299449e-005+j7.64038578900534095985e-005
  +7.64607119413393472888e-005+j4.26528909156412392063e-005
  +1.01882741384258453153e-004+j1.06952799779011621737e-005
</dep>
<dep gain acfrequency>
  +2.00415011539040968103e+001
  +2.00104829360144300665e+001
  +1.99585541755363209404e+001
  +1.98873098705754856041e+001
  +1.97982923562048114263e+001
  +1.96932882327185581062e+001
  +1.95742819005202335347e+001
  +1.94433816817557989509e+001
  +1.93027475281126150719e+001
  +1.91545280422391108743e+001
  +1.90008098601756536539e+001
  +1.88435801895950802987e+001
  +1.86847018711322760964e+001
  +1.85258994633219487014e+001
  +1.83687544237504027933e+001
  +1.82147073647241413141e+001
  +1.80650654886544579369e+001
  +1.79210135569503705710e+001
  +1.77836270495087269694e+001
  +1.76538864716047854131e+001
  +1.75326920378514010679e+001
  +1.74208781894989499506e+001
  +1.73192275779179780670e+001
  +1.72284842791419379182e+001
  +1.71493660843821480455e+001
  +1.70825757593425642256e+001
  +1.70288111639591015489e+001
  +1.69887740903976194318e+001
  +1.69631775904276622668e+001
  +1.69527514263614946799e+001
  +1.69582450557395638668e+001
  +1.69804272396222870611e+001
  +1.70200808749357186400e+001
  +1.70779909432150809323e+001
  +1.71549224207129142883e+001
  +1.72515834621193739906e+001
  +1.73685669462252931794e+001
  +1.75062602732769398983e+001
  +1.76647088386290960216e+001
  +1.78434126155232277711e+001
  +1.80410279324646900534e+001
  +1.82549390868599523685e+001
  +1.84806609654893740924e+001
  +1.87110441849500404032e+001
  +1.89352985471437911258e+001
  +1.91379621010578979678e+001
  +1.92981577581668020116e+001
  +1.93897858895260348788e+001
  +1.93835303193966659308e+001
  +1.92512889737542352009e+001
  +1.89724511063806886568e+001
  +1.85396854118057845540e+001
  +1.79611868707589934502e+001
  +1.72580236298916069870e+001
  +1.64581777921358636263e+001
  +1.55903590825880087323e+001
  +1.46797855736816362793e+001
  +1.37463684312843792412e+001
  +1.28046329588681810918e+001
  +1.18645063826124523843e+001
  +1.09323517332390540702e+001
  +1.00119291491567441454e+001
  +9.10517072624089784938e+000
  +8.21275907227318313630e+000
  +7.33453988493578545871e+000
  +6.46980737884161705153e+000
  +5.61749727240301588438e+000
  +4.77631449220898929298e+000
  +3.94481547315169267520e+000
  +3.12145905768651665824e+000
  +2.30463561554155837996e+000
  +1.49268086479231687491e+000
  +6.83878659989020643017e-001
  -1.23544546060282214861e-001
  -9.31431976711131870417e-001
  -1.74171478164362736329e+000
  -2.55643616280278873631e+000
  -3.37778185602305480728e+000
  -4.20811802550212021856e+000
  -5.05003827462196763776e+000
  -5.90642227502896854929e+000
  -6.78050957141926335936e+000
  -7.67599357768021839377e+000
  -8.59714285345959972062e+000
  -9.54895975782021189104e+000
  -1.05373909959151390581e+001
  -1.15696111111282018413e+001
  -1.26544096044425575798e+001
  -1.38027261826916642917e+001
  -1.50283969119337523779e+001
  -1.63491921008699989670e+001
  -1.77882189231193024170e+001
  -1.93756191336072163267e+001
  -2.11497711648974764387e+001
  -2.31540730202178721697e+001
  -2.54122176158082169195e+001
  -2.78150279352911837805e+001
  -2.97700613240303333384e+001
  -3.00977503228244316347e+001
  -2.87335505545771709990e+001
</dep>
<dep V2.i acfrequency>
  -1.44449857074404591079e-002+j6.15202234200512305257e-004
  -1.43237826598361650543e-002+j1.53150415084447248486e-003
  -1.41231734546033386307e-002+j2.35217115827219755420e-003
  -1.38514547168814405181e-002+j3.11855835249609525395e-003
  -1.35174334159768733121e-002+j3.83211895185944914285e-003
  -1.31310172288585901013e-002+j4.48962669578909564366e-003
  -1.27026646034035448074e-002+j5.08825547520097825477e-003
  -1.22427974687410057869e-002+j5.62672285096138622557e-003
  -1.17613049191354363671e-002+j6.10545471240112221090e-003
  -1.12671759947505206040e-002+j6.52640865070469502335e-003
  -1.07682675161090077309e-002+j6.89276788711894444067e-003
  -1.02711940994673605471e-002+j7.20860207145364653702e-003
  -9.78131716409352466868e-003+j7.47854575889603852973e-003
  -9.30280612848882748622e-003+j7.70752084495778672091e-003
  -8.83874610163074177216e-003+j7.90051379445827657577e-003
  -8.39127024074622779315e-003+j8.06240863954060978103e-003
  -7.96169992945061286149e-003+j8.19787089235209272264e-003
  -7.55068089079420721316e-003+j8.31127461944454297427e-003
  -7.15830765661434453156e-003+j8.40666402936681052271e-003
  -6.78423218754842672490e-003+j8.48774126896281039256e-003
  -6.42775486827744553520e-003+j8.55787313010379115108e-003
  -6.08789769644615952338e-003+j8.62011063428046349355e-003
  -5.76346040784775272975e-003+j8.67721673425769432497e-003
  -5.45306070792023894755e-003+j8.73169850919821959045e-003
